!Created with skrf (http://scikit-rf.org).
# GHz S RI R 50.0 
!freq ReS11 ImS11
75.0 6.693849754024199 -4.316304831605987
75.35 6.8385372577856565 -1.173217065044459
75.7 -4.557651324039138 3.98114487987319
76.05 -5.263171177303942 1.6718183509743803
76.4 -0.26947095517549524 -6.891745251113552
76.75 -1.9353226371521906 3.360116439583512
77.1 2.4698840956696833 -3.3789573924848866
77.45 -2.178296529444646 -5.933889150357361
77.8 -3.1653172001038867 2.57198237881937
78.15 -4.071865993771313 -5.873056453697726
78.5 1.256875132116787 -3.70003519821151
78.85 1.8198149716554233 4.270522800740055
79.2 -4.526526830240816 0.27422498261244344
79.55 2.1426331595673815 6.800316592990781
79.9 -0.2960003221597849 -1.8783289940816956
80.25 4.340780233378892 0.0526377497041699
80.6 5.344253082904462 0.3206484154760101
80.95 3.9923276320813947 2.9324163767040936
81.3 -5.726873888224256 -2.1549572511675006
81.65 2.7897649548724557 -4.094799688390471
82.0 -1.4959853897811137 -1.9662574897274254
82.35 -3.9494144928099844 -2.408363199906484
82.7 -1.5445432210414574 0.6539300414597846
83.05 3.9544748579507436 6.245318775651988
83.4 6.845912172862502 2.86411733032934
83.75 6.586099812599826 -5.17403290847605
84.1 -5.834616991747646 -6.030657165164023
84.45 -5.834583679342844 5.698777852432741
84.8 -5.47145021928066 1.5591752673706665
85.15 -4.813572838335562 -3.6577733820521425
85.5 4.775774706932768 4.004154530409182
85.85 -2.580103353194054 -2.2439279566257424
86.2 -4.919954546755132 6.991120272043625
86.55 -0.15238657706674075 1.5726421038744005
86.9 4.306695777781232 1.2505484697924312
87.25 -2.4842608173684093 -3.499916057449498
87.6 -5.038760490254842 -2.4189533088830695
87.95 -6.086046101505645 4.08970581348386
88.3 4.011799494139882 -1.4020302755386798
88.65 2.434159399628068 3.333015633192554
89.0 2.332893641165623 -5.196020012338595
89.35 0.4084370930074095 3.1578676413296543
89.7 -5.552318300666107 1.4239307117967905
90.05 -6.176710833604601 -4.763283313358976
90.4 6.664755309821016 6.783870633098828
90.75 -5.393673087060405 -5.485147093651687
91.1 -6.990900901846529 2.918867477860421
91.45 -1.8496543648860424 -6.0916053221129385
91.8 -3.5817680577236435 1.4291506547778274
92.15 -6.2084372809933654 5.129268388601482
92.5 -1.2263356170644597 -2.8084133552800643
92.85 5.060930810398949 2.8342493749074325
93.2 -3.232020201897951 1.4536249552796752
93.55 -5.246088873522735 4.389339732201423
93.9 3.6473684282746337 -5.442250849795325
94.25 -6.410397046393902 0.5609760401395334
94.6 -0.959432500711956 1.5685558264613493
94.95 3.8222101588102815 -2.193601840818121
95.3 -1.536436907451132 -3.5333937015970793
95.65 -2.4661469730943804 -1.664010336869841
96.0 6.335373457176311 5.3425719774724225
96.35 0.742011603059767 0.9835434533119034
96.7 4.158554711395805 0.7153368301637615
97.05 -4.708078561584717 -3.567642077183584
97.4 3.5503512628033285 4.217157993373804
97.75 -3.7435975657989844 2.322122414006127
98.1 0.8663962101158551 -2.2161476944524265
98.45 -6.563511193805297 -1.5868900343524204
98.8 -1.2537260440581683 2.771323413470695
99.15 5.145219139014965 4.834626181341077
99.5 3.8310384119988528 -4.807070743017284
99.85 0.7269340533303108 -1.227837615958976
100.2 -1.6454908629668086 4.575664202452903
100.55 6.016802403029274 4.079728817895069
100.9 3.77530357579686 6.219246564576444
101.25 1.5592279628924142 5.853365428254594
101.6 5.236765417921439 6.662627335798296
101.95 2.4635419855956764 -4.3306342268627995
102.3 3.212243350626525 1.8160044961271522
102.65 -4.211439162565849 -2.7838706293348965
103.0 -6.459932457738086 -5.369270739482654
103.35 -4.699682402019984 -2.4924238916806747
103.7 -4.185668970222212 -3.884287215171886
104.05 -6.910383676196085 -3.5618647055272827
104.4 0.35563115741017115 -6.0505864160564595
104.75 5.546675905464634 3.3928731982292195
105.1 -5.606274719722519 5.019143309879506
105.45 5.2888640102199584 -6.307869432362139
105.8 0.5815451894050994 4.005455199869798
106.15 1.2143932454108455 3.4571269655043926
106.5 -4.195436351574413 -3.941803035867397
106.85 1.6179435329391239 1.2715123727217024
107.2 1.9117916441728722 3.641566954097226
107.55 -6.999194056806287 2.8431938896377638
107.9 -4.790562033378446 1.0959802630091162
108.25 -4.312195129690556 -3.2456957847763945
108.6 -2.110953939432286 0.5703579819802997
108.95 -0.5045167382386904 6.644348116961457
109.3 1.3218377126681022 0.886428419586796
109.65 -0.2291132830721767 1.7815695643656142
110.0 -0.5595062581349544 -5.624739286286386
