!Created with skrf (http://scikit-rf.org).
# GHz S RI R 50.0 
!freq ReS11 ImS11
75.0 0.837159679373022 -0.22150081793844167
75.35 -0.7364206988386164 0.6541097338569617
75.7 -0.44604165786752437 0.21983784392764583
76.05 -0.945031163741245 -0.1575295017995253
76.4 0.7670432126367797 -0.3861699562682419
76.75 -0.506794771324721 0.34682665040590677
77.1 -0.9154845835477399 -0.9464640718253283
77.45 -0.884780836025129 -0.8544219249562257
77.8 0.3673305171215713 -0.11436917919690259
78.15 -0.973339783515712 -0.5033589896022337
78.5 -0.6088234838146156 -0.8816189040369005
78.85 0.08521682740072123 0.41919385477370197
79.2 -0.9697014552355507 0.8635554499034852
79.55 0.6003813640553362 0.4099772435458042
79.9 -0.14229763799465078 0.5094780389316245
80.25 0.6941894334682983 -0.11300126826120693
80.6 -0.5410881716131786 0.4805456475430341
80.95 0.21204870688087385 0.16036287701225982
81.3 -0.24777267916234536 -0.3795488744911042
81.65 -0.6731041702400757 0.46199895375216027
82.0 0.5124227798637904 -0.4798024551588229
82.35 -0.6399390281500816 0.47604427074702516
82.7 0.7553468277341246 -0.7644338422367003
83.05 -0.830937365134423 -0.5444106434227254
83.4 -0.6445012052353645 -0.8334855103526599
83.75 -0.026277690891616023 0.8647588144977605
84.1 -0.7412743214795212 -0.9193920893364718
84.45 -0.7829882924254437 0.7612783907365561
84.8 0.7684114502665655 0.7727642489091344
85.15 0.519808745516491 -0.8520443480035622
85.5 0.8770299795097187 0.2711798372663017
85.85 0.6786226007787493 -0.9901424448276614
86.2 0.6641286486205902 0.5609086135894297
86.55 0.29399668446289806 0.3318709444175403
86.9 0.9275235357715101 0.2140967315789104
87.25 -0.1100387699067562 0.7420974378061083
87.6 0.36333469368443505 0.18393003633773475
87.95 -0.2703697037374291 0.5027353573342097
88.3 -0.6448571676520045 -0.7693613398993686
88.65 -0.6015692404771582 -0.4806669110032964
89.0 -0.21673528466260117 -0.8194409204324167
89.35 -0.7072119252680726 -0.8843568883100614
89.7 0.8876460405510682 0.29848402704513877
90.05 -0.20217111424954481 -0.42312480563371024
90.4 -0.010378186509598208 0.5342414914864557
90.75 -0.4461192021015241 0.2038439881626699
91.1 0.7647842608286983 -0.06639871958156274
91.45 -0.6246508018440653 -0.7228835997451915
91.8 -0.9449438289369652 -0.8756107118940759
92.15 0.6298518776100139 -0.9186538269197511
92.5 -0.2009826371388952 0.5937851191521195
92.85 -0.510115113026619 0.8963771493718244
93.2 0.054195696068588095 -0.29782536144646166
93.55 0.6544702580805677 -0.8312190679931475
93.9 -0.9156710366408585 0.5153754338254921
94.25 -0.09590838825523895 0.4668569022030369
94.6 -0.4510717422845929 -0.10274613634375562
94.95 -0.7089430100452809 0.18527787097572967
95.3 -0.42883159179056785 0.797051659934038
95.65 -0.0964560498746283 -0.5231641706709895
96.0 -0.18251445253596743 0.44415719992638136
96.35 -0.5969843582971184 0.819497386728669
96.7 -0.4088689023858887 -0.20829543959960217
97.05 -0.6353316177975996 0.46214016408757397
97.4 -0.01679452961909722 -0.10235350457632486
97.75 -0.023620190539350494 0.9078830856283155
98.1 -0.9743722202443685 0.6719524585177314
98.45 0.5103333900499627 0.7267794511762944
98.8 -0.30010778661257587 -0.22590376489565456
99.15 0.24268542631463785 -0.16965531270848966
99.5 -0.4672528459012504 0.0972708656971919
99.85 0.29366429482428225 -0.7662492808180656
100.2 -0.36729685323791306 0.6088307667311899
100.55 -0.7104368100927945 -0.4995662536335663
100.9 -0.6306673194682002 0.13930998791367655
101.25 0.3240330101363669 0.28757329845507185
101.6 0.3464416496224765 -0.24881791335329284
101.95 0.7064379247236299 -0.44443284342982103
102.3 -0.26646734714725406 0.6690183312531357
102.65 0.8400082110205529 0.10273701848561734
103.0 -0.8694177805834618 -0.28629993983321467
103.35 0.5463421039433145 0.7009027565016577
103.7 0.9103734196375157 -0.8157050165318571
104.05 -0.4160648097513353 0.6595162798681593
104.4 -0.29402074270337475 -0.5244425745922698
104.75 0.7011690762834382 0.7401446343346625
105.1 -0.647062845795882 -0.588624694605923
105.45 0.38900186243740276 0.6186438315546259
105.8 -0.38721512857898155 -0.5180484200716235
106.15 0.11057308461956228 -0.14792516438596293
106.5 0.7653554941288216 0.978562025124466
106.85 0.14540137690529997 0.3848102437271599
107.2 -0.04481110044131742 -0.024080736708941952
107.55 -0.030585968440172806 0.8923855834913781
107.9 -0.3577725741338391 0.7899939746832303
108.25 -0.6525219596520606 -0.7461622139950959
108.6 -0.06067411595278438 -0.8101879592548782
108.95 -0.4299161721832403 -0.23988022298929823
109.3 -0.2384927772182288 -0.6367800043738887
109.65 -0.2576968261850092 0.5296607770038837
110.0 -0.36473529323715104 -0.5293083143025183
