!Created with skrf (http://scikit-rf.org).
# GHz S RI R 50.0 
!freq ReS11 ImS11
75.0 -2.2781440528574386 7.7281369948379695
75.35 -3.5561491852157925 2.167168745481085
75.7 -5.601578194509695 -2.817012501980468
76.05 4.766687553543026 -0.5621282238779983
76.4 5.431976929133478 5.598896472024803
76.75 -1.1682789028786864 6.476006182480429
77.1 2.895563835918262 -1.8690658660581185
77.45 -5.139184533429825 -7.6261931601877
77.8 1.2006545612287596 -2.1910887822763137
78.15 0.617152342132476 -6.362852432586077
78.5 -1.837617246759871 3.408482075562217
78.85 -5.909809570350351 -6.089294560887192
79.2 -6.6887369641031 5.78863646732006
79.55 -3.52148751619187 -4.1776490980947525
79.9 0.7208267460302675 6.373429639592027
80.25 5.712578133427018 3.983732134577627
80.6 5.545042718584277 -4.124224138881653
80.95 7.326232483438886 6.943755184771028
81.3 -0.84400070870036 6.793769430875921
81.65 -5.203610457946029 -0.3640218635441208
82.0 -3.317322728280585 2.2843913936991527
82.35 -5.773300600170527 2.519696761796691
82.7 3.0329068492397386 5.588233175286668
83.05 -5.401295897441935 -1.3801820336531279
83.4 5.9118136766131215 0.6456910557544138
83.75 4.901801186782514 -3.5998404823479913
84.1 -5.543195885651615 0.876911665174184
84.45 -6.2381864904341136 -6.734149041173946
84.8 -4.327813687050918 -7.389137452964048
85.15 -0.5863425482009692 0.15257374177402205
85.5 6.252940187876328 -5.329720511457149
85.85 -0.36469170829771613 -0.15770607557066363
86.2 -3.095790969599795 6.207688714880472
86.55 -2.680134301551915 0.9851166836520608
86.9 6.9020821041538625 -4.545113616276257
87.25 -1.3846120097069594 -2.5940659519516984
87.6 -5.11718791932695 3.0079691164506066
87.95 6.271989890378977 6.1337389813378245
88.3 7.275404392908513 5.76352566715688
88.65 3.738457315209139 -5.784580939506348
89.0 3.5516255721693053 -7.061838368754133
89.35 -0.356856352974928 -1.6959458511582728
89.7 5.256160397760802 -6.189928352660848
90.05 -6.694601910080914 -6.859914878704911
90.4 -2.1438716112777385 4.255541319237691
90.75 -5.005121228715511 -7.266165180540231
91.1 -6.539798703188264 2.74293717958086
91.45 4.2355762297108175 6.032411413070529
91.8 -2.254707834330219 7.071615293496331
92.15 2.6317313935439017 -6.159099769840772
92.5 -2.226024581657354 -4.935733624349295
92.85 -2.389980817074571 1.5228958417581477
93.2 -2.879275702778976 3.4108019013560185
93.55 -7.972465673524908 -4.297981272823565
93.9 6.626888439863519 4.521305393031888
94.25 -5.830171431822897 7.582427849320997
94.6 -0.002540390641096124 -3.6103713015146415
94.95 -5.273171992979069 -2.166627383118758
95.3 2.0012600181220854 4.251283628669643
95.65 7.529577621708796 0.7525287792268518
96.0 2.1296591153036886 -4.510010794653889
96.35 0.3180545094744165 4.51893993488852
96.7 -3.471929983775606 6.883306088469993
97.05 -2.749461199367884 -0.9367822277060238
97.4 7.40440940718277 6.157795563726848
97.75 -3.9008286569509547 -2.7489906287941377
98.1 6.363703431920772 -7.413332684324477
98.45 -5.771234133634323 5.004486401954676
98.8 5.437757240896593 7.49994788525397
99.15 0.8571578104958295 -7.658084643353449
99.5 -0.5465493753468937 -2.394240202917681
99.85 -1.5272853744481 -7.180651712076713
100.2 0.9102881805419276 4.792350812650108
100.55 0.6476187569573995 -5.580277992973912
100.9 6.507698437383363 -1.7683187948948618
101.25 -3.2864655144748625 5.787503351244547
101.6 -5.8385269101211605 4.619476363394924
101.95 5.547066143852163 -0.38863557704134877
102.3 1.0097516824260158 5.683765726989282
102.65 4.227218425852678 6.083895202291863
103.0 -7.6410156255702795 5.008016626756845
103.35 4.027718650643559 -7.542471963855302
103.7 -1.687412001219439 6.847250216703079
104.05 2.083833915601957 -4.018424612410065
104.4 3.096485663362081 3.6114920963540484
104.75 -4.6410388108075935 -7.071307201815731
105.1 -4.591950061179107 5.5721085971494375
105.45 -5.772468523372833 5.01580095565857
105.8 0.9890213311820286 -1.589844279843085
106.15 0.7267576483735834 -4.537425596910216
106.5 -3.568588249372276 -4.8802144157683625
106.85 -4.758448401722124 2.540667441284695
107.2 -2.5682888960759236 5.349735199514644
107.55 3.521525626476416 -6.371103329139627
107.9 -3.7029725984988584 3.4750725893051833
108.25 -3.6915058123573257 -0.5176048019114781
108.6 2.429920958040327 2.788579463637996
108.95 -2.3466976009513623 7.815693672750072
109.3 -7.899957913837106 -1.0107289077929096
109.65 6.1591820780054825 7.632643222830437
110.0 -0.5557343814041467 7.770599804793841
