!Created with skrf (http://scikit-rf.org).
# GHz S RI R 50.0 
!freq ReS11 ImS11
75.0 2.259360703057684 2.380053843504057
75.35 3.566294223352929 -3.8919502348089887
75.7 -0.9389000659600226 0.16700323557182184
76.05 -3.789072960461647 1.7512853633698562
76.4 -3.060783173320586 -2.6771826898903575
76.75 3.6234546433689516 -1.571511410541273
77.1 -2.7180113392775063 0.9728194934605021
77.45 -2.9128036156695893 1.715528215738253
77.8 3.2909587395911784 -2.392879808390693
78.15 -1.4696884063691522 1.4292984543919687
78.5 2.7408450551811203 -0.05058070778765966
78.85 0.7494959170421032 1.1904715002873862
79.2 -2.8182587014156155 1.9888490769129064
79.55 2.3883401126428945 -1.6796874688256755
79.9 -3.969187707334748 -1.7638601151089057
80.25 -3.3004245686392197 0.4030437321071343
80.6 -1.5026363295387632 -1.828749868563702
80.95 2.5815810715198424 -1.4241109489628423
81.3 -3.4577896696361687 -2.266566280015655
81.65 1.0696495209189427 -2.0145562044835037
82.0 -1.596543393751464 3.2562017282419022
82.35 3.3180092662370155 0.9057453281468861
82.7 0.3404394736944889 2.3240950553066027
83.05 3.498215246189857 0.6545787562363721
83.4 -0.9986053225721134 0.5468385062481893
83.75 -0.7151917878640583 0.0025685877844185967
84.1 -1.1005513070595994 -1.7691782699144794
84.45 2.450407423522961 -1.5081305388891675
84.8 -3.8624597714016886 0.2973376873828304
85.15 -2.1853920593491827 2.7278878083050584
85.5 2.0339500856002903 3.9571282112831634
85.85 -0.5622643603352877 -0.6679255564090241
86.2 -1.3624897641036728 -1.165893886164267
86.55 2.252930519164636 3.3706115298326145
86.9 1.2029328349404516 -0.21426092070807723
87.25 -1.32117356287098 -2.8018503873772467
87.6 1.1098974055222115 1.9447666633327279
87.95 -2.7260973225573 2.8199539740067125
88.3 0.4138331346849107 -3.579586844650799
88.65 -0.995749380195682 -0.2523817040147458
89.0 3.709750820327973 1.4625750150350614
89.35 0.30841810108610535 3.1638788007507426
89.7 -2.4712940080653016 -1.212217126091499
90.05 -3.3697867869369524 3.375592217627622
90.4 -3.6305042234096288 1.0184383686201306
90.75 0.7782561442096991 -0.8419691875913609
91.1 1.8485849536969763 -3.3032222631513406
91.45 -2.459659924064357 -2.173689773219671
91.8 3.086743439913641 3.0846923245123943
92.15 -2.3681108931285184 0.9304562198220827
92.5 -1.4532252640405687 3.9399971821132507
92.85 -1.9048621623302306 1.4930540277670659
93.2 -1.1324455639035387 3.9124049337192366
93.55 2.4561183651720606 -1.0909008828463973
93.9 1.4777968599670679 -2.833718265996641
94.25 -0.5551385901082524 -3.9667659966433693
94.6 -1.4301255467636933 -0.6746554352862173
94.95 -0.46539368751161536 0.5222447018283027
95.3 1.5216500754631257 1.5109153484972895
95.65 2.763748800517944 1.1102028526219136
96.0 -0.12450117169489339 2.028433910360894
96.35 -3.7108212410972836 -0.5579142902383145
96.7 -0.4057991486173762 0.7525530630607227
97.05 2.634160368756654 -3.5351447790790624
97.4 -0.3208719457053313 0.20182200236612502
97.75 -2.3739424939086895 1.4404898556175105
98.1 1.5113095346777854 -3.962041709750718
98.45 -1.8349658448044774 -2.208329756517638
98.8 -2.165337546082343 -3.6416570658060516
99.15 2.2495959542135884 -3.7635226389074026
99.5 -1.1847151306113055 -3.673864933085471
99.85 0.7062782728069008 -1.9156068462372797
100.2 -2.228571482566985 -3.2761145799796454
100.55 -3.1155400233820556 -0.8843852252682858
100.9 -0.9018034967681405 0.18605581667469195
101.25 2.816031089129587 1.9188352640866713
101.6 1.8195049537598402 -2.5743416961326577
101.95 -3.851039605388337 2.9053345776170048
102.3 -3.0016269944381975 1.5193653233382287
102.65 1.417373407761466 3.5022644724211274
103.0 1.79584416466664 2.271733549467596
103.35 1.4785011032364936 2.2455059610548
103.7 -0.40505607278534583 3.5160558596781826
104.05 -2.412485070218475 3.4687168513750466
104.4 0.8309305980181776 0.6569198713984195
104.75 3.2139789636151344 3.341530363137519
105.1 -1.9963775118125584 -0.5742891624698645
105.45 -1.2458489530638701 0.5691777516765422
105.8 0.6402708746188077 -0.47119632527002686
106.15 -0.7169604198163588 -2.9947775461810604
106.5 1.5880092210067271 0.3066081599999233
106.85 -0.31058911551370016 2.1145422689754696
107.2 2.494270961786495 3.336965347473022
107.55 1.0358545134136667 3.701158584031943
107.9 1.8740423657681688 -1.942586403642455
108.25 -3.8494130736353185 -3.7293195995350015
108.6 -3.7987257416221727 -3.2186720290212003
108.95 2.305364976226791 1.1985927038795854
109.3 0.9670196744695954 1.5697163710360869
109.65 1.524737269120652 2.934347318473103
110.0 -3.3137630305441403 -0.5384122468109735
