!Created with skrf (http://scikit-rf.org).
# GHz S RI R 50.0 
!freq ReS11 ImS11
75.0 -4.843080696633526 1.140193130945769
75.35 -0.7829658688587018 -0.3555511613676585
75.7 -0.6456553652462671 -1.995817438549242
76.05 -3.983634215701773 2.825141592657241
76.4 5.0172011186917 -4.061562724466295
76.75 2.415520854341897 -5.0283834945886365
77.1 -5.805631251659266 -0.9570019906005269
77.45 1.9103566526443898 -3.5698023139707216
77.8 -5.330729620841755 0.9507474712374568
78.15 -3.5976512593174554 -5.298702992336121
78.5 5.083401910825554 0.46259356440237287
78.85 4.319405799692955 2.9524198889325928
79.2 -0.3590717842900446 5.04091802596419
79.55 2.5976235597980435 -5.403765120970439
79.9 -2.2502717326385837 -2.7859118874679676
80.25 -1.90482840675786 2.509169019867407
80.6 1.6144976963987476 -0.18594017400886909
80.95 -5.072808654981809 -3.1878023814251377
81.3 2.5448811885177656 5.149130287418712
81.65 -3.3760855267165515 -1.2393860580701368
82.0 0.38778553822462936 5.092169443261327
82.35 -4.629979093321341 0.2124755869577828
82.7 2.897479738627507 -1.0873161126037174
83.05 5.689657143421275 -4.221249109360561
83.4 -0.8365447204053074 0.043637990514219016
83.75 2.246294433345424 0.1459245602189605
84.1 -3.32155154019658 5.152918269260624
84.45 -3.576252571935476 5.414938343981094
84.8 -2.8146162458779513 2.526283364395355
85.15 -1.8832089389332807 5.447447559716579
85.5 1.6783531502812505 -2.822322843091861
85.85 -4.890954110868547 2.742250162194452
86.2 -5.538341018988543 -0.9216140818904108
86.55 4.610340295700939 -1.0955184825401556
86.9 1.4212738901406188 -3.7375268910034527
87.25 0.5479507367977461 -4.883701584311362
87.6 -2.1931851936306117 -5.995139360026928
87.95 0.6124783212174494 -5.393295983136374
88.3 3.4415114956703423 -5.1196345976430395
88.65 -4.712558259297404 2.258372847258047
89.0 -1.9230333280130787 1.4921515615563128
89.35 -1.8595918535221174 4.032280893687485
89.7 2.213795305231181 -0.2565434129541986
90.05 -4.947274375040858 -5.65398555760924
90.4 -2.517587038017896 -4.133372682315399
90.75 -3.1855674595388526 3.8894123115549895
91.1 3.972448289347592 -0.9771591941742526
91.45 0.8461183502381644 0.4532574536731331
91.8 -5.173219253426797 -5.480009814371698
92.15 -1.3297123849897492 -2.9579363861203767
92.5 1.7917050829288024 -5.6008917904230415
92.85 -5.084438272441668 4.96819773586919
93.2 -5.128103735304016 0.33820777244066713
93.55 -3.4239623943622055 2.0231621076948367
93.9 -2.978308881488317 -3.463939644143094
94.25 4.840973798773003 -5.017165646212067
94.6 0.4679450211209164 4.225359388321117
94.95 2.3880059128145987 -2.6584700973285047
95.3 4.427305675870052 2.6316950105309833
95.65 -4.893364142241918 -2.144629825282213
96.0 2.0443763788666 3.2878086066062306
96.35 0.32721991955979224 -4.884965329138372
96.7 -1.6787108755159794 3.288255337587582
97.05 -3.648487302188034 -4.3203732890785105
97.4 3.087686421527739 3.668469813294356
97.75 5.57809723213343 0.33102126178067826
98.1 -0.9803317429865159 2.707947690186747
98.45 -2.2081750980149706 2.523796627333092
98.8 -3.714305707539463 1.767374151190543
99.15 2.8697590471556613 3.4009969101163016
99.5 0.9288207022986623 -0.27759889734458376
99.85 -0.635207261947893 -0.34921210048841145
100.2 5.586674161957857 -4.406988558886537
100.55 0.2458165177386311 -1.8640262563713543
100.9 -5.1465507473759695 2.0410484484253426
101.25 -3.6202616702654673 0.07475120170644178
101.6 2.5140824856346375 -3.5974697496997274
101.95 -2.501768859503455 4.196540476499895
102.3 0.46184714440898844 -0.8197563799275702
102.65 -1.0639654388898676 -1.1651937894831321
103.0 2.9578063757279103 1.992174718308764
103.35 -5.614687261009701 1.568907168135489
103.7 -2.471685492306595 5.617989888604255
104.05 -4.383299565680053 2.6997424971601274
104.4 5.798518442664938 -2.2049644668090873
104.75 5.639207045778724 -4.571097682610471
105.1 -3.8753032383433936 3.8622638964354983
105.45 -5.631935178217082 1.2748182242842745
105.8 -4.237873927354554 0.5364144411610865
106.15 3.03334803412838 -4.080521828737598
106.5 -3.653435907910345 0.21000404446434962
106.85 -3.6524799197608653 2.1768069239357555
107.2 -3.2169403507066714 -0.95550472754856
107.55 3.700411493149214 4.642422533589285
107.9 -5.64433959753395 1.3211612273290552
108.25 0.7922424282137936 -2.4054191744982973
108.6 3.813788921992615 -0.9185785475311361
108.95 4.112808611134528 -2.4931319770418643
109.3 -2.122615237023353 -1.1011105748544727
109.65 -0.3576181562413683 0.10531602705557441
110.0 3.609619913024225 -4.626145037269679
