!Created with skrf (http://scikit-rf.org).
# GHz S RI R 50.0 
!freq ReS11 ImS11
75.0 -0.5828771373569617 1.619999240933976
75.35 -2.849155453392607 -2.6527643084396124
75.7 -1.5848272635750502 1.2945534046429592
76.05 -1.9774668269952702 1.5930769756243723
76.4 0.07898414200759007 2.9723995333851363
76.75 0.4109474773858548 -1.4364984761355537
77.1 1.3750497054085942 -1.631996142365764
77.45 0.8375226219413658 0.49822892648776085
77.8 2.5564059977263636 1.9113923473970607
78.15 1.7956092521188278 0.428594081861311
78.5 -0.7896007528679849 -2.0023372644178536
78.85 0.7488609021905968 0.08267678069968842
79.2 1.5746201415747778 -1.6346057159193277
79.55 1.1986257715064494 -2.0338464216153405
79.9 1.585497957223071 1.4396657773607509
80.25 1.1879002321004 -0.3382150336611567
80.6 1.411148315633633 0.7980921443186726
80.95 1.6856326246607798 -1.8330792342330346
81.3 -1.6324577241567293 2.9199259286029244
81.65 -1.7197491264534484 2.6333613601352734
82.0 1.9682578905288144 0.18971437495794108
82.35 0.8565391058108904 -0.4655020781379018
82.7 -1.3098255869532744 -0.5165817897232912
83.05 1.965809622086852 1.1523273616788643
83.4 2.5651205213850323 -0.9459113504128407
83.75 0.4978257162791033 -2.852300963804516
84.1 2.624154435219677 -1.1613503565528196
84.45 -1.7966189043108793 1.126603757612896
84.8 2.538745588947428 1.7151755358166005
85.15 1.211069413541689 0.9112942390143097
85.5 -2.607103698637567 -0.3180701546744866
85.85 -1.5730208944176167 0.012364318099347793
86.2 -2.6830847828707407 -1.4671972397986568
86.55 2.7123778235837177 0.4022472902333256
86.9 -1.1438384553717815 -1.6273569828292598
87.25 -1.7147389471125114 2.960358291512251
87.6 2.7623823885381147 2.795428444857362
87.95 2.6266073604720193 -1.453983744392541
88.3 0.23942803417693947 -1.4837727678500894
88.65 0.6869332164253459 0.7300702837027073
89.0 1.2415915497432515 -1.5982038218324657
89.35 0.19301553365348356 -2.04565693535488
89.7 2.693817773620931 -1.67784995867409
90.05 -0.12404862180585186 -1.1161062602975613
90.4 2.2000932856008095 -0.24831501038601478
90.75 -2.2610926862200205 0.09221976430941958
91.1 -2.931577094959348 1.7041798810976068
91.45 1.917833632924227 -1.1281733087625114
91.8 1.984786620456353 0.32852003180634615
92.15 1.768307865708351 1.7457537313876288
92.5 0.6658507673526037 0.13150197714845513
92.85 1.8926769272207309 2.2688416948348564
93.2 -2.949539111719025 -1.8389708545062895
93.55 1.4380139199972963 1.321313980309499
93.9 -1.648494417944645 -0.15427115831167137
94.25 -0.2456104073487304 1.9456260661049973
94.6 1.8775597653221636 1.9557135086125363
94.95 -0.8291056522702458 1.1063510981837956
95.3 -2.200637902152268 0.03210640712201074
95.65 -1.722974613871955 1.4945829063556706
96.0 -0.8236876666701285 -1.398747274795632
96.35 2.152190731945863 -2.4487691190622365
96.7 -1.5450502232416146 -2.6151840225482728
97.05 -0.5444057984454245 1.9093411034720502
97.4 1.4557269717973431 -1.4279493528900906
97.75 2.08679079115079 0.862269416312553
98.1 1.8130344236784985 -1.764386186892515
98.45 1.7103527155974327 0.9099251608166938
98.8 -1.902728288677981 1.0011893122051585
99.15 -2.272831609818911 -2.2589027172911855
99.5 2.8079742806761745 -0.7946242015687774
99.85 2.5754538014903243 2.542298668757588
100.2 1.7811689413603056 -0.46307727083550176
100.55 0.648292962647276 -2.9373757970634777
100.9 2.2352200771120563 1.8071061997409914
101.25 2.3976499399534763 -1.0013643475674754
101.6 1.82667861152204 0.2643540058420286
101.95 -1.9162298129429112 -0.7219964136978752
102.3 0.7033063564906343 -1.19367738058256
102.65 2.0241957776614674 -1.7029775624422705
103.0 0.2995804779194602 1.1314944057245417
103.35 0.5801464599777557 0.40157149484161936
103.7 -1.5512894903510273 1.2536665563429847
104.05 2.842555641860134 -2.9932616965266776
104.4 -1.3170278832304727 2.3688634151573567
104.75 2.232387440413893 -2.667967347665058
105.1 1.5940720069799317 -0.4047749001666223
105.45 1.1767226450622337 -0.8717539227718609
105.8 -1.145117416538823 -0.49011749352244127
106.15 2.958081366316036 -0.36062131053714785
106.5 2.9285607260654634 1.4304359056134601
106.85 -2.1676895736630337 2.9068323096858304
107.2 -2.8563237224166693 -1.287096845983255
107.55 -2.548493998471457 -1.4400236144707868
107.9 0.5857005853614947 2.948164461632543
108.25 -0.8063901922949244 -2.6781432616009546
108.6 0.5761073486453794 1.635440947282126
108.95 -1.3390572075358076 -2.553377036489489
109.3 -1.9846098463226145 2.9029421310129737
109.65 -2.110926940580253 -1.3669764278640868
110.0 -1.0689734186726876 -2.338423673768473
