!Created with skrf (http://scikit-rf.org).
# GHz S RI R 50.0 
!freq ReS11 ImS11
75.0 3.80498903388175 2.0322842902910327
75.35 -1.6338905831012338 -1.7861290326667911
75.7 -8.788114714195206 -2.9792837344476166
76.05 -4.672318569669498 7.710422014294418
76.4 8.156530939337935 -8.844975133528127
76.75 0.8632395388656191 -3.482303064972629
77.1 -7.444403972302921 3.0477499828982464
77.45 3.561667642656973 1.1301978289157457
77.8 -4.777696370259514 -0.4404453940122406
78.15 -6.955033920855349 5.321858333193408
78.5 -7.246290453242511 -2.7752953637377358
78.85 0.26630401846261464 -1.0033456676837027
79.2 -2.835390237722682 8.258009086738682
79.55 2.58109470831341 5.307750793196073
79.9 3.746548625017434 1.9635767741720893
80.25 -7.685682372745904 -4.639746005767785
80.6 -2.812174641078999 -2.5662889676797285
80.95 -1.144027378287202 -0.6174893836821378
81.3 6.450402598892724 7.319710899444796
81.65 -0.8657966627447424 7.773262896435325
82.0 6.879852039892103 7.041306371545463
82.35 -0.9307833455797718 3.1970751543358134
82.7 -5.8082417679691645 8.088165775935286
83.05 1.832961112233623 -3.928824317461741
83.4 8.580689338751819 8.240536041256933
83.75 -1.9138580784878767 -6.2798779291852185
84.1 8.155638512266204 -3.837141019719343
84.45 4.78843929667369 3.5407893529934187
84.8 -8.89378561644248 3.3533292164285182
85.15 5.767113390110332 -7.469845980646707
85.5 3.0974462011186388 -7.139014893868807
85.85 -0.37641635442992816 -7.624678135662014
86.2 1.2665798504421102 1.2378432985676129
86.55 -4.734795582119576 -8.621173608433999
86.9 7.403896820505538 -6.299241454438133
87.25 8.0469418192462 7.80072627870654
87.6 -2.1993648919694135 0.009588629138502558
87.95 -8.262157459141935 -2.2957656391095655
88.3 -2.4676536771700652 -5.122324723057663
88.65 -6.613534666538493 -2.626037558802933
89.0 -1.3093835866238568 -1.5160413267619262
89.35 6.101838355749065 2.922750999831816
89.7 8.275967476704743 -8.170827450008689
90.05 -4.965347115772474 -4.2681946487872935
90.4 -7.72328826741181 5.904955012422269
90.75 -5.103186517585308 4.836739098911166
91.1 -7.971081934095862 -2.9946071600726847
91.45 -4.536359045815932 0.02884986660005806
91.8 -1.4020974353469868 2.8581065942191115
92.15 3.9168775202811785 3.0194017451577926
92.5 -6.293256519274244 6.2018843987100345
92.85 -1.0562908273041567 5.188677231340398
93.2 5.770736755961906 -4.055440360700353
93.55 -5.234466346666114 -5.155596435386718
93.9 7.768352261349808 -8.788615047765779
94.25 3.2110023110506316 6.419068442183549
94.6 3.412873859742124 5.228157565932767
94.95 1.147807371353469 0.5203406436657363
95.3 -3.9637680803209987 -7.440909195931837
95.65 1.4899774589464614 -0.8345725291691839
96.0 4.84157923473322 0.5881246618615248
96.35 3.95715007311618 5.627216940501993
96.7 -6.94001666781217 5.00556360650245
97.05 -1.6867552385319413 -8.653807643657146
97.4 5.033316068685357 3.9885220533791452
97.75 3.846592852760324 -1.1055307111221855
98.1 3.717468965942466 -4.677176047713148
98.45 2.4220326892954684 -5.347659057296217
98.8 -4.317669890299388 -0.7496485400052879
99.15 -0.59287563951765 4.287925990126262
99.5 4.256985205743149 2.649027824601403
99.85 4.688532966052112 4.0106067852989185
100.2 4.951955099670923 8.19631208411959
100.55 -1.5137388059745223 5.133477715196431
100.9 1.035120704841334 -5.060884670830683
101.25 -6.751320607048155 -7.085645242589461
101.6 -4.959181374004073 -6.131810827003365
101.95 2.6231161690485862 -4.685667493240879
102.3 -0.06354695482952288 -5.975395521745622
102.65 2.5491958711837066 -3.0592635004691404
103.0 6.550193692427659 1.6642705694927986
103.35 -8.739403855911165 -6.172811237393569
103.7 2.3270813714930845 -0.7046425328319181
104.05 -7.6348157134431895 -0.6496208332053419
104.4 -1.4199475472614476 -5.940829073083178
104.75 -3.8460602478307386 -5.381028183013947
105.1 -2.137201431969525 -0.7709184997251701
105.45 3.281921281528381 -1.3319607370714688
105.8 -5.447370952518176 -8.963844625753731
106.15 7.064122802827532 1.8965343071925052
106.5 -2.4451441156156997 7.038831666550108
106.85 6.562593840464357 8.363504156300039
107.2 -0.7458114429238623 8.010152134553941
107.55 -3.5020918669583514 -6.321998817617899
107.9 1.4201428542745418 3.0049996996156727
108.25 -3.3584562958793893 2.4893584224374585
108.6 2.8426924319154327 -1.5679161309054592
108.95 1.2398804588434524 -4.403771543004851
109.3 4.576980213612976 4.8485098956261155
109.65 -4.43358937667622 -0.6076337000756258
110.0 -4.396929894143657 -0.8507392896636541
