!Created with skrf (http://scikit-rf.org).
# GHz S RI R 50.0 
!freq ReS11 ImS11
75.0 -4.519741659045646 1.3644777554926923
75.35 -3.488822539725134 -4.9351756647908065
75.7 2.6967103425644225 -4.0355513411633055
76.05 -3.345421339827838 -4.6671747091900855
76.4 2.077237597090893 -0.6069989859564762
76.75 -1.455748462613542 2.3335143002639933
77.1 3.6623675075414033 -0.1547034638084288
77.45 -1.8549818340484114 -3.4940963732291563
77.8 1.7482798186252801 -4.063433797302098
78.15 -1.8626546744036465 4.075794279507605
78.5 0.25081051796580045 -1.5878555591760124
78.85 4.946438501585584 1.1101256660265835
79.2 2.86815090715429 -0.03668647121702118
79.55 -0.9206241309065122 -2.918394499070521
79.9 3.7680324702114265 0.11470163251556698
80.25 -4.212916643881074 2.1068973701979568
80.6 -3.2875159538805985 -3.716628065873545
80.95 -4.7673550566832805 -2.458864025503975
81.3 3.4210135071819883 0.7811540118662319
81.65 2.4238347057811502 4.672187997669407
82.0 -2.1705860466136695 -0.6136334279151445
82.35 -2.8234408271109688 4.524552963379099
82.7 -0.2976717911576299 4.952841062719754
83.05 1.8484952658711484 1.3020763947484848
83.4 4.157500543738648 -2.800824660758414
83.75 -0.7936858039781325 -2.3337558991020413
84.1 2.1667456331439783 0.3097386687949799
84.45 -3.24679566517037 -2.5520229828920593
84.8 2.8964144012869317 3.663962931628124
85.15 -4.627429907245468 4.211604641497246
85.5 -2.961288471259067 2.0375561459397487
85.85 3.8510765613921016 0.5849342113282152
86.2 2.7956042289853347 -4.0998731564384
86.55 -1.001206517486527 4.0826911105093515
86.9 2.5525307495097795 0.4663076522837828
87.25 -2.8314850444250075 3.488082360374831
87.6 -2.135930253221349 2.7310485975063523
87.95 3.807752990073676 -3.3932697295119207
88.3 4.489966092753878 -0.31632964588105605
88.65 0.3647165282628473 -1.0155593646305894
89.0 0.6511133338714681 4.819559439123494
89.35 4.4313719703008285 -1.577070659915304
89.7 -4.234094756136866 -0.15319731457594687
90.05 1.6366902961794327 -4.379300232574623
90.4 -0.5138911091859499 -1.355239104727689
90.75 -1.3703569731372944 -0.6690878989591786
91.1 -1.2319010137199427 0.10126156730179803
91.45 -0.2798495250585775 -3.6807516472171695
91.8 -3.315917661776849 0.16869370236010428
92.15 -3.189125973614384 0.8960185778440288
92.5 -2.524912317453479 4.184027551060412
92.85 0.7241429341163041 1.9344591572334724
93.2 1.491183152679515 1.514430856890987
93.55 -2.757994022996797 -3.015358292527106
93.9 2.5903894967591015 0.7944784004155647
94.25 3.277283956848801 1.9579722057873628
94.6 2.9391991818053 4.813049246582297
94.95 -0.6857484389727375 -0.2826047529051312
95.3 2.614288785138731 -4.183361822086335
95.65 -3.5810818986196793 1.6520703198383158
96.0 -2.4573367594178808 0.6451867127783817
96.35 -1.9720938451470837 -2.712860235511949
96.7 0.40533346535171266 0.6768671715543073
97.05 3.7578548990487812 0.6596121369779839
97.4 -3.9654372634393162 3.932276801796265
97.75 -0.577633802881391 3.340394029814285
98.1 2.8804627637494695 -4.5346010981990945
98.45 2.348261160550021 -0.34416058822212325
98.8 -0.1796862096103602 -2.281971082930939
99.15 -3.604325683368944 -1.0452797196093955
99.5 -3.91959359428083 -0.914550916998802
99.85 3.198862166470522 0.5767019573349474
100.2 0.4382351496968184 -0.3607595958140042
100.55 3.636033865279904 4.683448448663539
100.9 -2.464529146488231 -3.663646096301262
101.25 -4.283206055297804 2.1640241761742027
101.6 -2.7490208666226223 -4.991403663372137
101.95 -0.48211987752954766 4.374612277291051
102.3 -0.6768934862991616 -1.793867156897272
102.65 -4.47056495067002 -2.1970879267017276
103.0 -0.6769009312600294 -4.183678814610503
103.35 -3.2941836930474686 -2.6760721687994216
103.7 -0.409202964088623 3.120432405694724
104.05 -2.524343451189165 3.6254552822186703
104.4 2.4773224712339816 -4.692187151642267
104.75 -4.3627094287086985 3.430575808187685
105.1 4.0279909853536235 0.7850732790188641
105.45 3.6399846817715167 3.407827772304093
105.8 -2.1533442844817596 -3.742091856259787
106.15 -4.4807979418907244 2.7141685341992448
106.5 1.3080734007304817 -1.4717659439060438
106.85 -4.7688741374017765 -2.8615760216792676
107.2 4.177880066626367 1.838580898932931
107.55 -0.27664018149608727 -1.2700178567022757
107.9 -0.1506965082785372 1.018735282723161
108.25 -4.164237430040823 -4.634406773143292
108.6 0.8068543471314515 4.564923466251857
108.95 -0.021389769428924454 -3.8421592113676417
109.3 -4.663347802445454 1.9881148092138767
109.65 -2.7974342459649213 2.6461059761310435
110.0 4.126217900908032 1.8783594219295663
