!Created with skrf (http://scikit-rf.org).
# GHz S RI R 50.0 
!freq ReS11 ImS11
75.0 -1.5771989960844173 0.8658947196062838
75.35 0.6770884444199954 1.1048235013975267
75.7 0.2606880275548584 -0.39533463541122504
76.05 -0.9977569710714937 1.09473680289355
76.4 0.05369388218102511 -0.10750636822602777
76.75 1.0389851322762427 1.4371994660256826
77.1 1.688657219777701 -1.8218251391984497
77.45 0.4008656512188411 -1.3629671589383863
77.8 0.8427609455064351 1.3985758263917427
78.15 0.8087202786816907 1.3504931992588953
78.5 -0.1912321896498157 1.7722210985967246
78.85 0.6630517473129021 0.7569099899047949
79.2 0.8177126394903773 1.5226852880278186
79.55 0.6985376675493669 -0.4224302008633227
79.9 -1.069581071404126 1.1304344873157808
80.25 0.08895325626808948 0.7920679750263826
80.6 1.6462998911474056 0.15320185925242846
80.95 -1.0392395835374706 1.2420870867621248
81.3 -1.900119203039111 -0.11480237325527165
81.65 1.1910243304675925 1.4895774307696859
82.0 1.8763760593919145 -1.4937198388313244
82.35 0.6964129590034052 1.2857174790167334
82.7 -0.5937228820263338 0.8406163332233376
83.05 -0.10284129167778167 -0.22425500416662691
83.4 -0.1791360868717815 1.3455458974453736
83.75 1.6425627776698093 -1.1960241282216204
84.1 -0.2633251456805241 -1.3635501860282648
84.45 0.5429009832149125 -0.28656679856307976
84.8 -1.329643724591683 -1.2394162474184145
85.15 -0.012838712638634231 0.37908943851038623
85.5 -0.807464774692257 1.8225672177173728
85.85 -0.04524732239785667 0.5437614612597441
86.2 -0.4108979044612995 0.7376658348910698
86.55 1.862595382842625 1.1038998827907185
86.9 -1.747830111719658 1.8221563299473393
87.25 0.23500480266380963 -1.1944378012284376
87.6 -0.779923089614067 0.05129749593865984
87.95 1.2430291175419539 1.1944137462727364
88.3 -1.7747411504759172 -0.20386082963476193
88.65 1.1826117808193706 0.25056701820132066
89.0 -0.22596339283560685 0.4294929419758864
89.35 -0.18903119527675694 1.5900132834395553
89.7 0.8722330357645061 0.851871919312956
90.05 -0.48040413306646723 -0.8129957074651397
90.4 0.44737498397122355 0.3549617251180601
90.75 0.6884702897485249 1.4226189716433257
91.1 1.3305287287910557 0.9425176433389
91.45 1.6925001785183387 1.992726852443797
91.8 -1.1921999046822949 -1.7379649621421174
92.15 1.6708451260467934 -0.21359122030676136
92.5 -0.022467588695780805 -0.8963187412756954
92.85 0.020933702567664803 0.5224213563775764
93.2 -0.9683859193043811 1.7500361485994498
93.55 -0.4383824320460157 0.6402746936352552
93.9 -0.8289310665644334 0.4148420881156025
94.25 0.5257968054328277 0.6284576075995258
94.6 -0.25714422853760865 -1.8118846549803673
94.95 1.3986116677457208 -1.0152824478057751
95.3 1.5468367382579626 -1.241657901152187
95.65 1.3316964199868275 0.7870553196826289
96.0 -1.9203889063718593 -0.26058903451684223
96.35 0.06571357109251252 1.25186028984588
96.7 -0.017789828182564804 1.3724067873451657
97.05 1.220562617685582 0.1646726561254681
97.4 -1.3464043232519636 -0.9798370133232477
97.75 1.2737179192702013 0.8011044408370025
98.1 0.5071842211056277 0.6638419668149447
98.45 0.09899359659071783 -1.4488283003123814
98.8 -1.1615194911941584 -1.7294643806304388
99.15 0.8657075340078846 -0.4676990909937522
99.5 -1.7978714923655783 0.46314382402126064
99.85 -1.3037028108031916 -0.1230543833113904
100.2 1.847140880100799 1.7632890450583916
100.55 0.34646719431909867 -0.4592657273953118
100.9 -1.5320285239164857 1.7253765822305605
101.25 0.7472054459992661 -0.27477577635416006
101.6 -0.6519189575886983 0.584399711200648
101.95 1.589140686810861 1.4686912263049763
102.3 1.6036858614700105 -1.61352851286893
102.65 1.2240390188780488 -1.1565077167925808
103.0 0.13481361998706332 -1.5655141843923976
103.35 0.006477965989807544 0.08741804426542954
103.7 1.0929875790955559 1.7392205517927941
104.05 -0.8277955492042932 1.8501311184011842
104.4 -0.3178390505572488 -1.689607875242646
104.75 -1.2507513139365418 0.4597098502458197
105.1 1.9372230154478278 0.6963255981650862
105.45 1.204087644021103 1.772157777893343
105.8 0.41892343233929363 1.0842169488532583
106.15 0.4095968011407298 -0.6202637994351319
106.5 0.4183036687247852 -1.1243626866364256
106.85 -1.2446647385983876 0.35322898759377974
107.2 0.49305699363998245 1.4785747821191326
107.55 0.2762208383354525 -1.823848385901779
107.9 -1.313145110510554 1.5837051818362986
108.25 -1.146283321325301 0.6343967786242657
108.6 -1.410681480496601 -1.4137034379801645
108.95 1.3424689880238727 -0.4517835588769734
109.3 -0.502208681814516 1.0483860535033909
109.65 -0.3859441268902364 1.1130984350552264
110.0 0.19176896781816932 0.6387975376255821
